
T1138 000:031 SEGGER J-Link V4.70a Log File (0000ms, 0030ms total)
T1138 000:031 DLL Compiled: May 14 2013 09:08:53 (0000ms, 0030ms total)
T1138 000:031 Logging started @ 2014-07-08 22:54 (0000ms, 0030ms total)
T1138 000:031 JLINK_SetWarnOutHandler(...) (0000ms, 0030ms total)
T1138 000:031 JLINK_OpenEx(...)
Firmware: J-Link ARM V8 compiled Nov 14 2012 22:34:52
Hardware: V8.00
S/N: 99999993
Feature(s): RDI,FlashDL,FlashBP,JFlash,GDBFULL  returns O.K. (0012ms, 0042ms total)
T1138 000:043 JLINK_SetErrorOutHandler(...) (0000ms, 0042ms total)
T1138 000:043 JLINK_ExecCommand("ProjectFile = "D:\stm32\fly0513\Project\JLinkSettings.ini"", ...)  returns 0x00 (0000ms, 0042ms total)
T1138 000:043 JLINK_ExecCommand("Device = STM32F103ZE", ...)
                JLINK_AddMirrorAreaEx(Addr = 0x00000000, Size = 0x00000000) (0000ms, 0000ms total)
              Device "STM32F103ZE" selected (512 KB flash, 64 KB RAM).  returns 0x00 (0001ms, 0043ms total)
T1138 000:044 JLINK_ExecCommand("DisableConnectionTimeout", ...)  returns 0x00 (0000ms, 0043ms total)
T1138 000:044 JLINK_GetHardwareVersion()  returns 0x13880 (0000ms, 0043ms total)
T1138 000:044 JLINK_GetDLLVersion()  returns 47001 (0000ms, 0043ms total)
T1138 000:044 JLINK_GetFirmwareString(...) (0000ms, 0043ms total)
T1138 000:046 JLINK_GetDLLVersion()  returns 47001 (0000ms, 0043ms total)
T1138 000:046 JLINK_GetCompileDateTime() (0000ms, 0043ms total)
T1138 000:047 JLINK_GetFirmwareString(...) (0000ms, 0043ms total)
T1138 000:047 JLINK_GetHardwareVersion()  returns 0x13880 (0000ms, 0043ms total)
T1138 000:049 JLINK_TIF_Select(JLINKARM_TIF_JTAG)  returns 0x00 (0000ms, 0043ms total)
T1138 000:049 JLINK_SetSpeed(2000) (0000ms, 0043ms total)
T1138 000:049 JLINK_GetIdData(...) >0x2F8 JTAG>TotalIRLen = 9, IRPrint = 0x0011 >0x30 JTAG> >0x210 JTAG> >0x40 JTAG> >0x40 JTAG> >0x40 JTAG> >0x30 JTAG> >0x40 JTAG> >0x40 JTAG> >0x40 JTAG> >0x40 JTAG> >0x40 JTAG> >0x40 JTAG> >0x40 JTAG> >0x40 JTAG> >0x2F8 JTAG>TotalIRLen = 9, IRPrint = 0x0011 >0x30 JTAG> >0x210 JTAG> >0x80 JTAG> >0x40 JTAG> >0x40 JTAG> >0x50 JTAG> >0x40 JTAG> >0x40 JTAG> >0x40 JTAG> >0x50 JTAG> >0x40 JTAG> >0x40 JTAG> >0x40 JTAG> >0x30 JTAG> >0x40 JTAG> >0x50 JTAG> >0x40 JTAG>
 >0x38 JTAG> >0x80 JTAG> >0x40 JTAG> >0x40 JTAG> >0x50 JTAG> >0x40 JTAG> >0x40 JTAG> >0x40 JTAG> >0x50 JTAG> >0x40 JTAG> >0x40 JTAG> >0x30 JTAG> >0x40 JTAG> >0x40 JTAG> >0x40 JTAG> >0x40 JTAG> >0x40 JTAG> >0x50 JTAG> >0x40 JTAG> >0x80 JTAG> >0x40 JTAG> >0x30 JTAG> >0x40 JTAG> >0x40 JTAG> >0x40 JTAG> >0x40 JTAG> >0x40 JTAG> >0x50 JTAG> >0x40 JTAG> >0x80 JTAG> >0x40 JTAG> >0x30 JTAG> >0x40 JTAG> >0x50 JTAG> >0x40 JTAG> >0x40 JTAG> >0x40 JTAG> >0x30 JTAG> >0x40 JTAG> >0x50 JTAG> >0x40 JTAG>
Found Cortex-M3 r1p1, Little endian. >0x50 JTAG> >0x50 JTAG> >0x40 JTAG> >0x40 JTAG> >0x30 JTAG> >0x30 JTAG> >0x50 JTAG> >0x40 JTAG> >0x80 JTAG> >0x40 JTAG> >0x30 JTAG> >0x40 JTAG> >0x50 JTAG> >0x40 JTAG> >0x40 JTAG> >0x40 JTAG> >0x30 JTAG> >0x40 JTAG> >0x50 JTAG> >0x40 JTAG>TPIU fitted. >0x40 JTAG> >0x40 JTAG> >0x30 JTAG> >0x40 JTAG> >0x50 JTAG> >0x40 JTAG>ETM fitted. >0x40 JTAG> >0x40 JTAG> >0x30 JTAG> >0x40 JTAG> >0x50 JTAG> >0x40 JTAG> >0x40 JTAG> >0x40 JTAG> >0x30 JTAG> >0x40 JTAG> >0x50 JTAG>
 >0x40 JTAG>FPUnit: 6 code (BP) slots and 2 literal slots >0x40 JTAG> >0x40 JTAG> >0x30 JTAG> >0x40 JTAG> >0x50 JTAG> >0x40 JTAG> >0x40 JTAG> >0x40 JTAG> >0x30 JTAG> >0x40 JTAG> >0x50 JTAG> >0x40 JTAG> >0x40 JTAG> >0x40 JTAG> >0x30 JTAG> >0x30 JTAG> >0x50 JTAG> >0x40 JTAG> ScanLen=9 NumDevices=2 aId[0]=0x3BA00477 aIrRead[0]=0 aScanLen[0]=0 aScanRead[0]=0 (0060ms, 0103ms total)
T1138 000:109 JLINK_JTAG_GetDeviceID(DeviceIndex = 0)  returns 0x3BA00477 (0000ms, 0103ms total)
T1138 000:109 JLINK_JTAG_GetDeviceInfo(DeviceIndex = 0)  returns 0x00 (0000ms, 0103ms total)
T1138 000:109 JLINK_JTAG_GetDeviceID(DeviceIndex = 1)  returns 0x6414041 (0000ms, 0103ms total)
T1138 000:109 JLINK_JTAG_GetDeviceInfo(DeviceIndex = 1)  returns 0x00 (0000ms, 0103ms total)
T1138 000:109 JLINK_GetDeviceFamily()  returns 3 (0000ms, 0103ms total)
T1138 000:109 JLINK_ReadMem (0xE00FFFF0, 0x0010 Bytes, ...) -- CPU is running -- CPU_ReadMem(16 bytes @ 0xE00FFFF0) -- Data:  0D 00 00 00 10 00 00 00 05 00 00 00 B1 00 00 00  returns 0x00 (0005ms, 0108ms total)
T1138 000:114 JLINK_ReadMem (0xE00FFFD0, 0x0020 Bytes, ...) -- CPU is running -- CPU_ReadMem(32 bytes @ 0xE00FFFD0) -- Data:  00 00 00 00 00 00 00 00 00 00 00 00 00 00 00 00 ...  returns 0x00 (0001ms, 0109ms total)
T1138 000:115 JLINK_ReadMem (0xE00FF000, 0x0018 Bytes, ...) -- CPU is running -- CPU_ReadMem(24 bytes @ 0xE00FF000) -- Data:  03 F0 F0 FF 03 20 F0 FF 03 30 F0 FF 03 10 F0 FF ...  returns 0x00 (0001ms, 0110ms total)
T1138 000:116 JLINK_ReadMemU32(0xE000ED00, 0x0001 Items, ...) -- CPU is running -- CPU_ReadMem(4 bytes @ 0xE000ED00) -- Data:  31 C2 1F 41  returns 0x01 (0001ms, 0111ms total)
T1138 000:117 JLINK_SetResetType(JLINKARM_RESET_TYPE_NORMAL)  returns JLINKARM_RESET_TYPE_NORMAL (0000ms, 0111ms total)
T1138 000:117 JLINK_Reset() >0x88 JTAG> >0x80 JTAG> >0x40 JTAG> >0x40 JTAG> >0x50 JTAG> >0x40 JTAG> >0x40 JTAG> >0x40 JTAG> >0x50 JTAG> >0x40 JTAG> >0x40 JTAG> >0x30 JTAG> >0x40 JTAG> >0x40 JTAG> >0x40 JTAG> >0x40 JTAG> >0x40 JTAG> >0x50 JTAG> >0x40 JTAG> >0x80 JTAG> >0x40 JTAG> >0x30 JTAG> >0x40 JTAG> >0x40 JTAG> >0x40 JTAG> >0x40 JTAG> >0x40 JTAG> >0x50 JTAG> >0x40 JTAG> >0x80 JTAG> >0x40 JTAG> >0x30 JTAG> >0x40 JTAG> >0x50 JTAG> >0x40 JTAG> >0x40 JTAG> >0x40 JTAG> >0x30 JTAG> >0x40 JTAG> >0x50 JTAG>
 >0x40 JTAG>Found Cortex-M3 r1p1, Little endian. >0x50 JTAG> >0x50 JTAG> >0x40 JTAG> >0x40 JTAG> >0x30 JTAG> >0x30 JTAG> >0x50 JTAG> >0x40 JTAG> >0x80 JTAG> >0x40 JTAG> >0x30 JTAG> >0x40 JTAG> >0x50 JTAG> >0x40 JTAG> >0x40 JTAG> >0x40 JTAG> >0x30 JTAG> >0x40 JTAG> >0x50 JTAG> >0x40 JTAG>TPIU fitted. >0x40 JTAG> >0x40 JTAG> >0x30 JTAG> >0x40 JTAG> >0x50 JTAG> >0x40 JTAG>ETM fitted. >0x40 JTAG> >0x40 JTAG> >0x30 JTAG> >0x40 JTAG> >0x50 JTAG> >0x40 JTAG> >0x40 JTAG> >0x40 JTAG> >0x30 JTAG> >0x40 JTAG>
 >0x50 JTAG> >0x40 JTAG>FPUnit: 6 code (BP) slots and 2 literal slots >0x40 JTAG> >0x40 JTAG> >0x30 JTAG> >0x40 JTAG> >0x50 JTAG> >0x40 JTAG> >0x40 JTAG> >0x40 JTAG> >0x30 JTAG> >0x40 JTAG> >0x50 JTAG> >0x40 JTAG> >0x40 JTAG> >0x40 JTAG> >0x30 JTAG> >0x30 JTAG> >0x50 JTAG> >0x40 JTAG> -- CPU is running -- CPU_WriteMem(4 bytes @ 0xE000EDF0) -- CPU is running -- CPU_WriteMem(4 bytes @ 0xE000EDFC) -- CPU is running -- CPU_WriteMem(4 bytes @ 0xE000ED0C) -- CPU is running -- CPU_ReadMem(4 bytes @ 0xE000EDF0)
 -- CPU is running -- CPU_ReadMem(4 bytes @ 0xE000EDF0) -- CPU is running -- CPU_WriteMem(4 bytes @ 0xE000EDF0) -- CPU is running -- CPU_WriteMem(4 bytes @ 0xE000EDFC) -- CPU is running -- CPU_ReadMem(4 bytes @ 0xE000EDF0) >0xD0 JTAG> >0x40 JTAG> >0x30 JTAG> >0x40 JTAG> >0x50 JTAG> >0x40 JTAG> -- CPU_WriteMem(4 bytes @ 0xE000EDFC) -- CPU_WriteMem(4 bytes @ 0xE0001028) -- CPU_WriteMem(4 bytes @ 0xE0001038) -- CPU_WriteMem(4 bytes @ 0xE0001048) -- CPU_WriteMem(4 bytes @ 0xE0001058)
 -- CPU_WriteMem(4 bytes @ 0xE0002000) (0070ms, 0181ms total)
T1138 000:187 JLINK_ReadReg(R15)  returns 0x08000144 (0000ms, 0181ms total)
T1138 000:187 JLINK_ReadReg(XPSR)  returns 0x01000000 (0000ms, 0181ms total)
T1138 000:187 JLINK_Halt()  returns 0x00 (0000ms, 0181ms total)
T1138 000:187 JLINK_IsHalted()  returns TRUE (0000ms, 0181ms total)
T1138 000:187 JLINK_ReadMemU32(0xE000EDF0, 0x0001 Items, ...) -- CPU_ReadMem(4 bytes @ 0xE000EDF0) -- Data:  03 00 03 00  returns 0x01 (0000ms, 0181ms total)
T1138 000:187 JLINK_WriteU32(0xE000EDF0, 0xA05F0003) -- CPU_WriteMem(4 bytes @ 0xE000EDF0)  returns 0x00 (0001ms, 0182ms total)
T1138 000:188 JLINK_WriteU32(0xE000EDFC, 0x01000000) -- CPU_WriteMem(4 bytes @ 0xE000EDFC)  returns 0x00 (0001ms, 0183ms total)
T1138 000:189 JLINK_GetHWStatus(...)  returns 0x00 (0001ms, 0184ms total)
T1138 000:190 JLINK_GetNumBPUnits(Type = 0xFFFFFF00)  returns 0x06 (0000ms, 0184ms total)
T1138 000:190 JLINK_GetNumBPUnits(Type = 0xF0)  returns 0x2000 (0000ms, 0184ms total)
T1138 000:190 JLINK_GetNumWPUnits()  returns 0x04 (0000ms, 0184ms total)
T1138 000:191 JLINK_GetSpeed()  returns 0x7D0 (0000ms, 0184ms total)
T1138 000:191 JLINK_ReadMemU32(0xE000E004, 0x0001 Items, ...) -- CPU_ReadMem(4 bytes @ 0xE000E004) -- Data:  01 00 00 00  returns 0x01 (0001ms, 0185ms total)
T1138 000:192 JLINK_ReadMemU32(0xE000E004, 0x0001 Items, ...) -- CPU_ReadMem(4 bytes @ 0xE000E004) -- Data:  01 00 00 00  returns 0x01 (0001ms, 0186ms total)
T1138 000:193 JLINK_WriteMem(0xE0001000, 0x001C Bytes, ...) -- Data:  01 00 00 00 00 00 00 00 00 00 00 00 00 00 00 00 ... -- CPU_WriteMem(28 bytes @ 0xE0001000)  returns 0x1C (0000ms, 0186ms total)
T1138 000:193 JLINK_ReadMem (0xE0001000, 0x001C Bytes, ...) -- CPU_ReadMem(28 bytes @ 0xE0001000) -- Data:  01 00 00 40 00 00 00 00 00 00 00 00 00 00 00 00 ...  returns 0x00 (0001ms, 0187ms total)
T1138 000:194 JLINK_ReadReg(R15)  returns 0x08000144 (0000ms, 0187ms total)
T1138 000:194 JLINK_ReadReg(XPSR)  returns 0x01000000 (0001ms, 0188ms total)
T1138 000:269 JLINK_SetResetType(JLINKARM_RESET_TYPE_NORMAL)  returns JLINKARM_RESET_TYPE_NORMAL (0000ms, 0188ms total)
T1138 000:269 JLINK_Reset() >0x38 JTAG> >0x80 JTAG> >0x40 JTAG> >0x40 JTAG> >0x50 JTAG> >0x40 JTAG> >0x40 JTAG> >0x40 JTAG> >0x50 JTAG> >0x40 JTAG> >0x40 JTAG> >0x30 JTAG> >0x40 JTAG> >0x40 JTAG> >0x40 JTAG> >0x40 JTAG> >0x40 JTAG> >0x50 JTAG> >0x40 JTAG> >0x80 JTAG> >0x40 JTAG> >0x30 JTAG> >0x40 JTAG> >0x40 JTAG> >0x40 JTAG> >0x40 JTAG> >0x40 JTAG> >0x50 JTAG> >0x40 JTAG> >0x80 JTAG> >0x40 JTAG> >0x30 JTAG> >0x40 JTAG> >0x50 JTAG> >0x40 JTAG> >0x40 JTAG> >0x40 JTAG> >0x30 JTAG> >0x40 JTAG> >0x50 JTAG>
 >0x40 JTAG>Found Cortex-M3 r1p1, Little endian. >0x50 JTAG> >0x50 JTAG> >0x40 JTAG> >0x40 JTAG> >0x30 JTAG> >0x30 JTAG> >0x50 JTAG> >0x40 JTAG> >0x80 JTAG> >0x40 JTAG> >0x30 JTAG> >0x40 JTAG> >0x50 JTAG> >0x40 JTAG> >0x40 JTAG> >0x40 JTAG> >0x30 JTAG> >0x40 JTAG> >0x50 JTAG> >0x40 JTAG>TPIU fitted. >0x40 JTAG> >0x40 JTAG> >0x30 JTAG> >0x40 JTAG> >0x50 JTAG> >0x40 JTAG>ETM fitted. >0x40 JTAG> >0x40 JTAG> >0x30 JTAG> >0x40 JTAG> >0x50 JTAG> >0x40 JTAG> >0x40 JTAG> >0x40 JTAG> >0x30 JTAG> >0x40 JTAG>
 >0x50 JTAG> >0x40 JTAG>FPUnit: 6 code (BP) slots and 2 literal slots >0x40 JTAG> >0x40 JTAG> >0x30 JTAG> >0x40 JTAG> >0x50 JTAG> >0x40 JTAG> >0x40 JTAG> >0x40 JTAG> >0x30 JTAG> >0x40 JTAG> >0x50 JTAG> >0x40 JTAG> >0x40 JTAG> >0x40 JTAG> >0x30 JTAG> >0x30 JTAG> >0x50 JTAG> >0x40 JTAG> -- CPU_WriteMem(4 bytes @ 0xE000EDF0) -- CPU_WriteMem(4 bytes @ 0xE000EDFC) -- CPU_WriteMem(4 bytes @ 0xE000ED0C) -- CPU_ReadMem(4 bytes @ 0xE000EDF0) -- CPU_ReadMem(4 bytes @ 0xE000EDF0)
 -- CPU_WriteMem(4 bytes @ 0xE000EDF0) -- CPU_WriteMem(4 bytes @ 0xE000EDFC) -- CPU is running -- CPU_ReadMem(4 bytes @ 0xE000EDF0) >0xD0 JTAG> >0x40 JTAG> >0x30 JTAG> >0x40 JTAG> >0x50 JTAG> >0x40 JTAG> -- CPU_WriteMem(4 bytes @ 0xE000EDFC) -- CPU_WriteMem(4 bytes @ 0xE0001028) -- CPU_WriteMem(4 bytes @ 0xE0001038) -- CPU_WriteMem(4 bytes @ 0xE0001048) -- CPU_WriteMem(4 bytes @ 0xE0001058) -- CPU_WriteMem(4 bytes @ 0xE0002000) (0071ms, 0259ms total)
T1138 000:340 JLINK_ReadReg(R15)  returns 0x08000144 (0000ms, 0259ms total)
T1138 000:340 JLINK_ReadReg(XPSR)  returns 0x01000000 (0000ms, 0259ms total)
T1138 000:340 JLINK_ReadMem (0x08000144, 0x003C Bytes, ...) -- CPU_ReadMem(64 bytes @ 0x08000140) -- Updating C cache (64 bytes @ 0x08000140) -- Read from C cache (60 bytes @ 0x08000144) -- Data:  06 48 80 47 06 48 00 47 FE E7 FE E7 FE E7 FE E7 ...  returns 0x00 (0001ms, 0260ms total)
T1138 000:520 JLINK_ReadMem (0x40020000, 0x0014 Bytes, ...) -- CPU_ReadMem(20 bytes @ 0x40020000) -- Data:  00 00 00 00 00 00 00 00 00 00 00 00 00 00 00 00 ...  returns 0x00 (0001ms, 0261ms total)
T1138 000:521 JLINK_ReadMem (0x40020014, 0x0004 Bytes, ...) -- CPU_ReadMem(4 bytes @ 0x40020014) -- Data:  00 00 00 00  returns 0x00 (0001ms, 0262ms total)
T1138 000:522 JLINK_ReadMem (0x4002001C, 0x000C Bytes, ...) -- CPU_ReadMem(12 bytes @ 0x4002001C) -- Data:  00 00 00 00 00 00 00 00 00 00 00 00  returns 0x00 (0001ms, 0263ms total)
T1138 000:523 JLINK_ReadMem (0x40020028, 0x0004 Bytes, ...) -- CPU_ReadMem(4 bytes @ 0x40020028) -- Data:  00 00 00 00  returns 0x00 (0001ms, 0264ms total)
T1138 000:524 JLINK_ReadMem (0x40020030, 0x000C Bytes, ...) -- CPU_ReadMem(12 bytes @ 0x40020030) -- Data:  00 00 00 00 00 00 00 00 00 00 00 00  returns 0x00 (0000ms, 0264ms total)
T1138 000:524 JLINK_ReadMem (0x4002003C, 0x0004 Bytes, ...) -- CPU_ReadMem(4 bytes @ 0x4002003C) -- Data:  00 00 00 00  returns 0x00 (0001ms, 0265ms total)
T1138 000:525 JLINK_ReadMem (0x40020044, 0x000C Bytes, ...) -- CPU_ReadMem(12 bytes @ 0x40020044) -- Data:  00 00 00 00 00 00 00 00 00 00 00 00  returns 0x00 (0001ms, 0266ms total)
T1138 000:526 JLINK_ReadMem (0x40020050, 0x0004 Bytes, ...) -- CPU_ReadMem(4 bytes @ 0x40020050) -- Data:  00 00 00 00  returns 0x00 (0001ms, 0267ms total)
T1138 000:527 JLINK_ReadMem (0x40020058, 0x000C Bytes, ...) -- CPU_ReadMem(12 bytes @ 0x40020058) -- Data:  00 00 00 00 00 00 00 00 00 00 00 00  returns 0x00 (0001ms, 0268ms total)
T1138 000:528 JLINK_ReadMem (0x40020064, 0x0004 Bytes, ...) -- CPU_ReadMem(4 bytes @ 0x40020064) -- Data:  00 00 00 00  returns 0x00 (0000ms, 0268ms total)
T1138 000:528 JLINK_ReadMem (0x4002006C, 0x000C Bytes, ...) -- CPU_ReadMem(12 bytes @ 0x4002006C) -- Data:  00 00 00 00 00 00 00 00 00 00 00 00  returns 0x00 (0001ms, 0269ms total)
T1138 000:529 JLINK_ReadMem (0x40020078, 0x0004 Bytes, ...) -- CPU_ReadMem(4 bytes @ 0x40020078) -- Data:  00 00 00 00  returns 0x00 (0001ms, 0270ms total)
T1138 000:530 JLINK_ReadMem (0x40020080, 0x000C Bytes, ...) -- CPU_ReadMem(12 bytes @ 0x40020080) -- Data:  00 00 00 00 00 00 00 00 00 00 00 00  returns 0x00 (0001ms, 0271ms total)
T1138 000:531 JLINK_ReadMem (0x4002008C, 0x0004 Bytes, ...) -- CPU_ReadMem(4 bytes @ 0x4002008C) -- Data:  00 00 00 00  returns 0x00 (0000ms, 0271ms total)
T1138 000:581 JLINK_ReadMem (0x40000400, 0x002C Bytes, ...) -- CPU_ReadMem(44 bytes @ 0x40000400) -- Data:  00 00 00 00 00 00 00 00 00 00 00 00 00 00 00 00 ...  returns 0x00 (0002ms, 0273ms total)
T1138 000:583 JLINK_ReadMem (0x4000042C, 0x0004 Bytes, ...) -- CPU_ReadMem(4 bytes @ 0x4000042C) -- Data:  00 00 00 00  returns 0x00 (0000ms, 0273ms total)
T1138 000:583 JLINK_ReadMem (0x40000434, 0x000C Bytes, ...) -- CPU_ReadMem(12 bytes @ 0x40000434) -- Data:  00 00 00 00 00 00 00 00 00 00 00 00  returns 0x00 (0001ms, 0274ms total)
T1138 000:584 JLINK_ReadMem (0x40000440, 0x0004 Bytes, ...) -- CPU_ReadMem(4 bytes @ 0x40000440) -- Data:  00 00 00 00  returns 0x00 (0001ms, 0275ms total)
T1138 000:585 JLINK_ReadMem (0x40000448, 0x0004 Bytes, ...) -- CPU_ReadMem(4 bytes @ 0x40000448) -- Data:  00 00 00 00  returns 0x00 (0001ms, 0276ms total)
T1138 000:586 JLINK_ReadMem (0x4000044C, 0x0004 Bytes, ...) -- CPU_ReadMem(4 bytes @ 0x4000044C) -- Data:  00 00 00 00  returns 0x00 (0001ms, 0277ms total)
T1138 000:636 JLINK_ReadMem (0x40013800, 0x0018 Bytes, ...) -- CPU_ReadMem(24 bytes @ 0x40013800) -- Data:  00 00 00 00 00 00 00 00 00 00 00 00 00 00 00 00 ...  returns 0x00 (0001ms, 0278ms total)
T1138 000:637 JLINK_ReadMem (0x40013818, 0x0004 Bytes, ...) -- CPU_ReadMem(4 bytes @ 0x40013818) -- Data:  00 00 00 00  returns 0x00 (0001ms, 0279ms total)
T1138 002:330 JLINK_ReadMem (0x2000007C, 0x0002 Bytes, ...) -- CPU_ReadMem(64 bytes @ 0x20000040) -- Updating C cache (64 bytes @ 0x20000040) -- Read from C cache (2 bytes @ 0x2000007C) -- Data:  34 48  returns 0x00 (0002ms, 0281ms total)
T1138 002:395 JLINK_ReadMem (0x2000007E, 0x0002 Bytes, ...) -- Read from C cache (2 bytes @ 0x2000007E) -- Data:  00 69  returns 0x00 (0000ms, 0281ms total)
T1138 002:400 JLINK_ReadMem (0x20000080, 0x0002 Bytes, ...) -- CPU_ReadMem(64 bytes @ 0x20000080) -- Updating C cache (64 bytes @ 0x20000080) -- Read from C cache (2 bytes @ 0x20000080) -- Data:  40 F0  returns 0x00 (0002ms, 0283ms total)
T1138 002:406 JLINK_ReadMem (0x20000082, 0x0002 Bytes, ...) -- Read from C cache (2 bytes @ 0x20000082) -- Data:  04 00  returns 0x00 (0000ms, 0283ms total)
T1138 002:435 JLINK_ReadMem (0x20000078, 0x0004 Bytes, ...) -- Read from C cache (4 bytes @ 0x20000078) -- Data:  00 20 70 47  returns 0x00 (0000ms, 0283ms total)
T1138 002:454 JLINK_ReadMem (0x20000060, 0x0004 Bytes, ...) -- Read from C cache (4 bytes @ 0x20000060) -- Data:  40 F6 FF 70  returns 0x00 (0001ms, 0284ms total)
T1138 002:496 JLINK_ReadMem (0x40020000, 0x0014 Bytes, ...) -- CPU_ReadMem(20 bytes @ 0x40020000) -- Data:  00 00 00 00 00 00 00 00 00 00 00 00 00 00 00 00 ...  returns 0x00 (0001ms, 0285ms total)
T1138 002:497 JLINK_ReadMem (0x40020014, 0x0004 Bytes, ...) -- CPU_ReadMem(4 bytes @ 0x40020014) -- Data:  00 00 00 00  returns 0x00 (0001ms, 0286ms total)
T1138 002:498 JLINK_ReadMem (0x4002001C, 0x000C Bytes, ...) -- CPU_ReadMem(12 bytes @ 0x4002001C) -- Data:  00 00 00 00 00 00 00 00 00 00 00 00  returns 0x00 (0001ms, 0287ms total)
T1138 002:499 JLINK_ReadMem (0x40020028, 0x0004 Bytes, ...) -- CPU_ReadMem(4 bytes @ 0x40020028) -- Data:  00 00 00 00  returns 0x00 (0000ms, 0287ms total)
T1138 002:499 JLINK_ReadMem (0x40020030, 0x000C Bytes, ...) -- CPU_ReadMem(12 bytes @ 0x40020030) -- Data:  00 00 00 00 00 00 00 00 00 00 00 00  returns 0x00 (0001ms, 0288ms total)
T1138 002:500 JLINK_ReadMem (0x4002003C, 0x0004 Bytes, ...) -- CPU_ReadMem(4 bytes @ 0x4002003C) -- Data:  00 00 00 00  returns 0x00 (0001ms, 0289ms total)
T1138 002:501 JLINK_ReadMem (0x40020044, 0x000C Bytes, ...) -- CPU_ReadMem(12 bytes @ 0x40020044) -- Data:  00 00 00 00 00 00 00 00 00 00 00 00  returns 0x00 (0001ms, 0290ms total)
T1138 002:502 JLINK_ReadMem (0x40020050, 0x0004 Bytes, ...) -- CPU_ReadMem(4 bytes @ 0x40020050) -- Data:  00 00 00 00  returns 0x00 (0001ms, 0291ms total)
T1138 002:503 JLINK_ReadMem (0x40020058, 0x000C Bytes, ...) -- CPU_ReadMem(12 bytes @ 0x40020058) -- Data:  00 00 00 00 00 00 00 00 00 00 00 00  returns 0x00 (0000ms, 0291ms total)
T1138 002:503 JLINK_ReadMem (0x40020064, 0x0004 Bytes, ...) -- CPU_ReadMem(4 bytes @ 0x40020064) -- Data:  00 00 00 00  returns 0x00 (0001ms, 0292ms total)
T1138 002:504 JLINK_ReadMem (0x4002006C, 0x000C Bytes, ...) -- CPU_ReadMem(12 bytes @ 0x4002006C) -- Data:  00 00 00 00 00 00 00 00 00 00 00 00  returns 0x00 (0001ms, 0293ms total)
T1138 002:505 JLINK_ReadMem (0x40020078, 0x0004 Bytes, ...) -- CPU_ReadMem(4 bytes @ 0x40020078) -- Data:  00 00 00 00  returns 0x00 (0001ms, 0294ms total)
T1138 002:506 JLINK_ReadMem (0x40020080, 0x000C Bytes, ...) -- CPU_ReadMem(12 bytes @ 0x40020080) -- Data:  00 00 00 00 00 00 00 00 00 00 00 00  returns 0x00 (0000ms, 0294ms total)
T1138 002:506 JLINK_ReadMem (0x4002008C, 0x0004 Bytes, ...) -- CPU_ReadMem(4 bytes @ 0x4002008C) -- Data:  00 00 00 00  returns 0x00 (0001ms, 0295ms total)
T1138 002:508 JLINK_ReadMem (0x40013800, 0x0018 Bytes, ...) -- CPU_ReadMem(24 bytes @ 0x40013800) -- Data:  00 00 00 00 00 00 00 00 00 00 00 00 00 00 00 00 ...  returns 0x00 (0001ms, 0296ms total)
T1138 002:509 JLINK_ReadMem (0x40013818, 0x0004 Bytes, ...) -- CPU_ReadMem(4 bytes @ 0x40013818) -- Data:  00 00 00 00  returns 0x00 (0001ms, 0297ms total)
T1138 002:510 JLINK_ReadMem (0x40000400, 0x002C Bytes, ...) -- CPU_ReadMem(44 bytes @ 0x40000400) -- Data:  00 00 00 00 00 00 00 00 00 00 00 00 00 00 00 00 ...  returns 0x00 (0002ms, 0299ms total)
T1138 002:512 JLINK_ReadMem (0x4000042C, 0x0004 Bytes, ...) -- CPU_ReadMem(4 bytes @ 0x4000042C) -- Data:  00 00 00 00  returns 0x00 (0000ms, 0299ms total)
T1138 002:512 JLINK_ReadMem (0x40000434, 0x000C Bytes, ...) -- CPU_ReadMem(12 bytes @ 0x40000434) -- Data:  00 00 00 00 00 00 00 00 00 00 00 00  returns 0x00 (0001ms, 0300ms total)
T1138 002:513 JLINK_ReadMem (0x40000440, 0x0004 Bytes, ...) -- CPU_ReadMem(4 bytes @ 0x40000440) -- Data:  00 00 00 00  returns 0x00 (0001ms, 0301ms total)
T1138 002:514 JLINK_ReadMem (0x40000448, 0x0004 Bytes, ...) -- CPU_ReadMem(4 bytes @ 0x40000448) -- Data:  00 00 00 00  returns 0x00 (0001ms, 0302ms total)
T1138 002:515 JLINK_ReadMem (0x4000044C, 0x0004 Bytes, ...) -- CPU_ReadMem(4 bytes @ 0x4000044C) -- Data:  00 00 00 00  returns 0x00 (0000ms, 0302ms total)
T1138 002:530 JLINK_ReadMem (0x40020000, 0x0014 Bytes, ...) -- CPU_ReadMem(20 bytes @ 0x40020000) -- Data:  00 00 00 00 00 00 00 00 00 00 00 00 00 00 00 00 ...  returns 0x00 (0001ms, 0303ms total)
T1138 002:531 JLINK_ReadMem (0x40020014, 0x0004 Bytes, ...) -- CPU_ReadMem(4 bytes @ 0x40020014) -- Data:  00 00 00 00  returns 0x00 (0001ms, 0304ms total)
T1138 002:532 JLINK_ReadMem (0x4002001C, 0x000C Bytes, ...) -- CPU_ReadMem(12 bytes @ 0x4002001C) -- Data:  00 00 00 00 00 00 00 00 00 00 00 00  returns 0x00 (0001ms, 0305ms total)
T1138 002:533 JLINK_ReadMem (0x40020028, 0x0004 Bytes, ...) -- CPU_ReadMem(4 bytes @ 0x40020028) -- Data:  00 00 00 00  returns 0x00 (0000ms, 0305ms total)
T1138 002:533 JLINK_ReadMem (0x40020030, 0x000C Bytes, ...) -- CPU_ReadMem(12 bytes @ 0x40020030) -- Data:  00 00 00 00 00 00 00 00 00 00 00 00  returns 0x00 (0001ms, 0306ms total)
T1138 002:534 JLINK_ReadMem (0x4002003C, 0x0004 Bytes, ...) -- CPU_ReadMem(4 bytes @ 0x4002003C) -- Data:  00 00 00 00  returns 0x00 (0001ms, 0307ms total)
T1138 002:535 JLINK_ReadMem (0x40020044, 0x000C Bytes, ...) -- CPU_ReadMem(12 bytes @ 0x40020044) -- Data:  00 00 00 00 00 00 00 00 00 00 00 00  returns 0x00 (0001ms, 0308ms total)
T1138 002:536 JLINK_ReadMem (0x40020050, 0x0004 Bytes, ...) -- CPU_ReadMem(4 bytes @ 0x40020050) -- Data:  00 00 00 00  returns 0x00 (0001ms, 0309ms total)
T1138 002:537 JLINK_ReadMem (0x40020058, 0x000C Bytes, ...) -- CPU_ReadMem(12 bytes @ 0x40020058) -- Data:  00 00 00 00 00 00 00 00 00 00 00 00  returns 0x00 (0001ms, 0310ms total)
T1138 002:538 JLINK_ReadMem (0x40020064, 0x0004 Bytes, ...) -- CPU_ReadMem(4 bytes @ 0x40020064) -- Data:  00 00 00 00  returns 0x00 (0000ms, 0310ms total)
T1138 002:538 JLINK_ReadMem (0x4002006C, 0x000C Bytes, ...) -- CPU_ReadMem(12 bytes @ 0x4002006C) -- Data:  00 00 00 00 00 00 00 00 00 00 00 00  returns 0x00 (0001ms, 0311ms total)
T1138 002:539 JLINK_ReadMem (0x40020078, 0x0004 Bytes, ...) -- CPU_ReadMem(4 bytes @ 0x40020078) -- Data:  00 00 00 00  returns 0x00 (0001ms, 0312ms total)
T1138 002:540 JLINK_ReadMem (0x40020080, 0x000C Bytes, ...) -- CPU_ReadMem(12 bytes @ 0x40020080) -- Data:  00 00 00 00 00 00 00 00 00 00 00 00  returns 0x00 (0001ms, 0313ms total)
T1138 002:541 JLINK_ReadMem (0x4002008C, 0x0004 Bytes, ...) -- CPU_ReadMem(4 bytes @ 0x4002008C) -- Data:  00 00 00 00  returns 0x00 (0001ms, 0314ms total)
T1138 002:543 JLINK_ReadMem (0x40013800, 0x0018 Bytes, ...) -- CPU_ReadMem(24 bytes @ 0x40013800) -- Data:  00 00 00 00 00 00 00 00 00 00 00 00 00 00 00 00 ...  returns 0x00 (0001ms, 0315ms total)
T1138 002:544 JLINK_ReadMem (0x40013818, 0x0004 Bytes, ...) -- CPU_ReadMem(4 bytes @ 0x40013818) -- Data:  00 00 00 00  returns 0x00 (0000ms, 0315ms total)
T1138 002:545 JLINK_ReadMem (0x40000400, 0x002C Bytes, ...) -- CPU_ReadMem(44 bytes @ 0x40000400) -- Data:  00 00 00 00 00 00 00 00 00 00 00 00 00 00 00 00 ...  returns 0x00 (0001ms, 0316ms total)
T1138 002:546 JLINK_ReadMem (0x4000042C, 0x0004 Bytes, ...) -- CPU_ReadMem(4 bytes @ 0x4000042C) -- Data:  00 00 00 00  returns 0x00 (0001ms, 0317ms total)
T1138 002:547 JLINK_ReadMem (0x40000434, 0x000C Bytes, ...) -- CPU_ReadMem(12 bytes @ 0x40000434) -- Data:  00 00 00 00 00 00 00 00 00 00 00 00  returns 0x00 (0001ms, 0318ms total)
T1138 002:548 JLINK_ReadMem (0x40000440, 0x0004 Bytes, ...) -- CPU_ReadMem(4 bytes @ 0x40000440) -- Data:  00 00 00 00  returns 0x00 (0001ms, 0319ms total)
T1138 002:549 JLINK_ReadMem (0x40000448, 0x0004 Bytes, ...) -- CPU_ReadMem(4 bytes @ 0x40000448) -- Data:  00 00 00 00  returns 0x00 (0001ms, 0320ms total)
T1138 002:550 JLINK_ReadMem (0x4000044C, 0x0004 Bytes, ...) -- CPU_ReadMem(4 bytes @ 0x4000044C) -- Data:  00 00 00 00  returns 0x00 (0000ms, 0320ms total)
T1C64 002:569 JLINK_SetBPEx(Addr = 0x080003A2, Type = 0xFFFFFFF2)  returns 0x00000001 (0000ms, 0320ms total)
T1C64 002:569 JLINK_SetBPEx(Addr = 0x080006B0, Type = 0xFFFFFFF2)  returns 0x00000002 (0000ms, 0320ms total)
T1C64 002:569 JLINK_SetBPEx(Addr = 0x08000884, Type = 0xFFFFFFF2)  returns 0x00000003 (0000ms, 0320ms total)
T1C64 002:569 JLINK_Go() -- CPU_WriteMem(4 bytes @ 0xE0002008) -- CPU_WriteMem(4 bytes @ 0xE000200C) -- CPU_WriteMem(4 bytes @ 0xE0002010) -- CPU_WriteMem(4 bytes @ 0xE0002014) -- CPU_WriteMem(4 bytes @ 0xE0002018) -- CPU_WriteMem(4 bytes @ 0xE000201C) (0005ms, 0325ms total)
T1C64 002:674 JLINK_IsHalted()  returns TRUE (0004ms, 0329ms total)
T1C64 002:678 JLINK_Halt()  returns 0x00 (0000ms, 0325ms total)
T1C64 002:678 JLINK_IsHalted()  returns TRUE (0000ms, 0325ms total)
T1C64 002:678 JLINK_IsHalted()  returns TRUE (0000ms, 0325ms total)
T1C64 002:678 JLINK_IsHalted()  returns TRUE (0000ms, 0325ms total)
T1C64 002:678 JLINK_ReadReg(R15)  returns 0x080003A2 (0000ms, 0325ms total)
T1C64 002:678 JLINK_ReadReg(XPSR)  returns 0x61000000 (0000ms, 0325ms total)
T1C64 002:679 JLINK_ClrBPEx(BPHandle = 0x00000001)  returns 0x00 (0000ms, 0326ms total)
T1C64 002:679 JLINK_ClrBPEx(BPHandle = 0x00000002)  returns 0x00 (0000ms, 0326ms total)
T1C64 002:679 JLINK_ClrBPEx(BPHandle = 0x00000003)  returns 0x00 (0000ms, 0326ms total)
T1C64 002:679 JLINK_ReadMemU32(0xE000ED30, 0x0001 Items, ...) -- CPU_ReadMem(4 bytes @ 0xE000ED30) -- Data:  03 00 00 00  returns 0x01 (0000ms, 0326ms total)
T1C64 002:679 JLINK_ReadMemU32(0xE0001028, 0x0001 Items, ...) -- CPU_ReadMem(4 bytes @ 0xE0001028) -- Data:  00 00 00 00  returns 0x01 (0001ms, 0327ms total)
T1C64 002:680 JLINK_ReadMemU32(0xE0001038, 0x0001 Items, ...) -- CPU_ReadMem(4 bytes @ 0xE0001038) -- Data:  00 02 00 00  returns 0x01 (0001ms, 0328ms total)
T1C64 002:681 JLINK_ReadMemU32(0xE0001048, 0x0001 Items, ...) -- CPU_ReadMem(4 bytes @ 0xE0001048) -- Data:  00 00 00 00  returns 0x01 (0001ms, 0329ms total)
T1C64 002:682 JLINK_ReadMemU32(0xE0001058, 0x0001 Items, ...) -- CPU_ReadMem(4 bytes @ 0xE0001058) -- Data:  00 00 00 00  returns 0x01 (0001ms, 0330ms total)
T1C64 002:683 JLINK_ReadReg(R0)  returns 0x080003A3 (0000ms, 0330ms total)
T1C64 002:683 JLINK_ReadReg(R1)  returns 0x20000638 (0000ms, 0330ms total)
T1C64 002:683 JLINK_ReadReg(R2)  returns 0x00000000 (0000ms, 0330ms total)
T1C64 002:683 JLINK_ReadReg(R3)  returns 0x0800497D (0000ms, 0330ms total)
T1C64 002:683 JLINK_ReadReg(R4)  returns 0x08004A7C (0000ms, 0330ms total)
T1C64 002:683 JLINK_ReadReg(R5)  returns 0x08004A7C (0000ms, 0330ms total)
T1C64 002:683 JLINK_ReadReg(R6)  returns 0x00000000 (0000ms, 0330ms total)
T1C64 002:683 JLINK_ReadReg(R7)  returns 0x00000000 (0000ms, 0330ms total)
T1C64 002:683 JLINK_ReadReg(R8)  returns 0x00000000 (0000ms, 0330ms total)
T1C64 002:683 JLINK_ReadReg(R9)  returns 0x20000160 (0000ms, 0330ms total)
T1C64 002:683 JLINK_ReadReg(R10)  returns 0x00000000 (0000ms, 0330ms total)
T1C64 002:683 JLINK_ReadReg(R11)  returns 0x00000000 (0000ms, 0330ms total)
T1C64 002:683 JLINK_ReadReg(R12)  returns 0x00000000 (0000ms, 0330ms total)
T1C64 002:683 JLINK_ReadReg(R13)  returns 0x20000638 (0000ms, 0330ms total)
T1C64 002:683 JLINK_ReadReg(R14)  returns 0x08004925 (0000ms, 0330ms total)
T1C64 002:683 JLINK_ReadReg(R15)  returns 0x080003A2 (0000ms, 0330ms total)
T1C64 002:683 JLINK_ReadReg(XPSR)  returns 0x61000000 (0000ms, 0330ms total)
T1C64 002:683 JLINK_ReadReg(MSP)  returns 0x20000638 (0000ms, 0330ms total)
T1C64 002:683 JLINK_ReadReg(PSP)  returns 0x20000800 (0000ms, 0330ms total)
T1C64 002:683 JLINK_ReadReg(CFBP)  returns 0x00000000 (0000ms, 0330ms total)
T1138 002:684 JLINK_ReadMem (0x20000015, 0x0001 Bytes, ...) -- CPU_ReadMem(64 bytes @ 0x20000000) -- Updating C cache (64 bytes @ 0x20000000) -- Read from C cache (1 bytes @ 0x20000015) -- Data:  00  returns 0x00 (0001ms, 0331ms total)
T1138 002:685 JLINK_ReadMem (0x20000016, 0x0001 Bytes, ...) -- Read from C cache (1 bytes @ 0x20000016) -- Data:  00  returns 0x00 (0000ms, 0331ms total)
T1138 002:685 JLINK_ReadMem (0x20000017, 0x0001 Bytes, ...) -- Read from C cache (1 bytes @ 0x20000017) -- Data:  00  returns 0x00 (0000ms, 0331ms total)
T1138 002:685 JLINK_ReadMem (0x20000018, 0x0001 Bytes, ...) -- Read from C cache (1 bytes @ 0x20000018) -- Data:  00  returns 0x00 (0000ms, 0331ms total)
T1138 002:685 JLINK_ReadMem (0x20000019, 0x0001 Bytes, ...) -- Read from C cache (1 bytes @ 0x20000019) -- Data:  00  returns 0x00 (0000ms, 0331ms total)
T1138 002:687 JLINK_ReadMem (0x2000007C, 0x0002 Bytes, ...) -- CPU_ReadMem(64 bytes @ 0x20000040) -- Updating C cache (64 bytes @ 0x20000040) -- Read from C cache (2 bytes @ 0x2000007C) -- Data:  00 00  returns 0x00 (0002ms, 0333ms total)
T1138 002:691 JLINK_ReadMem (0x2000007E, 0x0002 Bytes, ...) -- Read from C cache (2 bytes @ 0x2000007E) -- Data:  00 00  returns 0x00 (0000ms, 0333ms total)
T1138 002:691 JLINK_ReadMem (0x20000080, 0x0002 Bytes, ...) -- CPU_ReadMem(64 bytes @ 0x20000080) -- Updating C cache (64 bytes @ 0x20000080) -- Read from C cache (2 bytes @ 0x20000080) -- Data:  00 00  returns 0x00 (0001ms, 0334ms total)
T1138 002:692 JLINK_ReadMem (0x20000082, 0x0002 Bytes, ...) -- Read from C cache (2 bytes @ 0x20000082) -- Data:  00 00  returns 0x00 (0000ms, 0334ms total)
T1138 002:693 JLINK_ReadMem (0x20000078, 0x0004 Bytes, ...) -- Read from C cache (4 bytes @ 0x20000078) -- Data:  00 00 00 00  returns 0x00 (0000ms, 0334ms total)
T1138 002:693 JLINK_ReadMem (0x20000060, 0x0004 Bytes, ...) -- Read from C cache (4 bytes @ 0x20000060) -- Data:  00 00 00 00  returns 0x00 (0000ms, 0334ms total)
T1138 002:693 JLINK_ReadMem (0x40020000, 0x0014 Bytes, ...) -- CPU_ReadMem(20 bytes @ 0x40020000) -- Data:  00 00 00 00 00 00 00 00 00 00 00 00 00 00 00 00 ...  returns 0x00 (0001ms, 0335ms total)
T1138 002:694 JLINK_ReadMem (0x40020014, 0x0004 Bytes, ...) -- CPU_ReadMem(4 bytes @ 0x40020014) -- Data:  00 00 00 00  returns 0x00 (0001ms, 0336ms total)
T1138 002:695 JLINK_ReadMem (0x4002001C, 0x000C Bytes, ...) -- CPU_ReadMem(12 bytes @ 0x4002001C) -- Data:  00 00 00 00 00 00 00 00 00 00 00 00  returns 0x00 (0001ms, 0337ms total)
T1138 002:696 JLINK_ReadMem (0x40020028, 0x0004 Bytes, ...) -- CPU_ReadMem(4 bytes @ 0x40020028) -- Data:  00 00 00 00  returns 0x00 (0000ms, 0337ms total)
T1138 002:697 JLINK_ReadMem (0x40020030, 0x000C Bytes, ...) -- CPU_ReadMem(12 bytes @ 0x40020030) -- Data:  00 00 00 00 00 00 00 00 00 00 00 00  returns 0x00 (0000ms, 0337ms total)
T1138 002:697 JLINK_ReadMem (0x4002003C, 0x0004 Bytes, ...) -- CPU_ReadMem(4 bytes @ 0x4002003C) -- Data:  00 00 00 00  returns 0x00 (0001ms, 0338ms total)
T1138 002:698 JLINK_ReadMem (0x40020044, 0x000C Bytes, ...) -- CPU_ReadMem(12 bytes @ 0x40020044) -- Data:  00 00 00 00 00 00 00 00 00 00 00 00  returns 0x00 (0001ms, 0339ms total)
T1138 002:699 JLINK_ReadMem (0x40020050, 0x0004 Bytes, ...) -- CPU_ReadMem(4 bytes @ 0x40020050) -- Data:  00 00 00 00  returns 0x00 (0001ms, 0340ms total)
T1138 002:700 JLINK_ReadMem (0x40020058, 0x000C Bytes, ...) -- CPU_ReadMem(12 bytes @ 0x40020058) -- Data:  00 00 00 00 00 00 00 00 00 00 00 00  returns 0x00 (0001ms, 0341ms total)
T1138 002:701 JLINK_ReadMem (0x40020064, 0x0004 Bytes, ...) -- CPU_ReadMem(4 bytes @ 0x40020064) -- Data:  00 00 00 00  returns 0x00 (0000ms, 0341ms total)
T1138 002:701 JLINK_ReadMem (0x4002006C, 0x000C Bytes, ...) -- CPU_ReadMem(12 bytes @ 0x4002006C) -- Data:  00 00 00 00 00 00 00 00 00 00 00 00  returns 0x00 (0001ms, 0342ms total)
T1138 002:702 JLINK_ReadMem (0x40020078, 0x0004 Bytes, ...) -- CPU_ReadMem(4 bytes @ 0x40020078) -- Data:  00 00 00 00  returns 0x00 (0001ms, 0343ms total)
T1138 002:703 JLINK_ReadMem (0x40020080, 0x000C Bytes, ...) -- CPU_ReadMem(12 bytes @ 0x40020080) -- Data:  00 00 00 00 00 00 00 00 00 00 00 00  returns 0x00 (0001ms, 0344ms total)
T1138 002:704 JLINK_ReadMem (0x4002008C, 0x0004 Bytes, ...) -- CPU_ReadMem(4 bytes @ 0x4002008C) -- Data:  00 00 00 00  returns 0x00 (0000ms, 0344ms total)
T1138 002:705 JLINK_ReadMem (0x40013800, 0x0018 Bytes, ...) -- CPU_ReadMem(24 bytes @ 0x40013800) -- Data:  00 00 00 00 00 00 00 00 00 00 00 00 00 00 00 00 ...  returns 0x00 (0001ms, 0345ms total)
T1138 002:707 JLINK_ReadMem (0x40013818, 0x0004 Bytes, ...) -- CPU_ReadMem(4 bytes @ 0x40013818) -- Data:  00 00 00 00  returns 0x00 (0000ms, 0346ms total)
T1138 002:708 JLINK_ReadMem (0x40000400, 0x002C Bytes, ...) -- CPU_ReadMem(44 bytes @ 0x40000400) -- Data:  00 00 00 00 00 00 00 00 00 00 00 00 00 00 00 00 ...  returns 0x00 (0001ms, 0347ms total)
T1138 002:709 JLINK_ReadMem (0x4000042C, 0x0004 Bytes, ...) -- CPU_ReadMem(4 bytes @ 0x4000042C) -- Data:  00 00 00 00  returns 0x00 (0000ms, 0347ms total)
T1138 002:710 JLINK_ReadMem (0x40000434, 0x000C Bytes, ...) -- CPU_ReadMem(12 bytes @ 0x40000434) -- Data:  00 00 00 00 00 00 00 00 00 00 00 00  returns 0x00 (0000ms, 0347ms total)
T1138 002:710 JLINK_ReadMem (0x40000440, 0x0004 Bytes, ...) -- CPU_ReadMem(4 bytes @ 0x40000440) -- Data:  00 00 00 00  returns 0x00 (0001ms, 0348ms total)
T1138 002:711 JLINK_ReadMem (0x40000448, 0x0004 Bytes, ...) -- CPU_ReadMem(4 bytes @ 0x40000448) -- Data:  00 00 00 00  returns 0x00 (0001ms, 0349ms total)
T1138 002:712 JLINK_ReadMem (0x4000044C, 0x0004 Bytes, ...) -- CPU_ReadMem(4 bytes @ 0x4000044C) -- Data:  00 00 00 00  returns 0x00 (0000ms, 0349ms total)
T1138 002:715 JLINK_ReadMem (0x080003A2, 0x0002 Bytes, ...) -- CPU_ReadMem(64 bytes @ 0x08000380) -- Updating C cache (64 bytes @ 0x08000380) -- Read from C cache (2 bytes @ 0x080003A2) -- Data:  FF F7  returns 0x00 (0002ms, 0351ms total)
T1138 002:717 JLINK_ReadMem (0x080003A4, 0x003C Bytes, ...) -- CPU_ReadMem(64 bytes @ 0x080003C0) -- Updating C cache (64 bytes @ 0x080003C0) -- Read from C cache (60 bytes @ 0x080003A4) -- Data:  CF FF 01 F0 BA FC 01 28 03 D1 00 21 02 20 00 F0 ...  returns 0x00 (0001ms, 0352ms total)
T1C64 003:328 JLINK_SetBPEx(Addr = 0x080006B0, Type = 0xFFFFFFF2)  returns 0x00000004 (0000ms, 0352ms total)
T1C64 003:328 JLINK_SetBPEx(Addr = 0x08000884, Type = 0xFFFFFFF2)  returns 0x00000005 (0000ms, 0352ms total)
T1C64 003:328 JLINK_Go() -- CPU_WriteMem(4 bytes @ 0xE0002008) -- CPU_WriteMem(4 bytes @ 0xE000200C) -- CPU_WriteMem(4 bytes @ 0xE0002010) (0004ms, 0356ms total)
T1C64 003:432 JLINK_IsHalted()  returns FALSE (0001ms, 0357ms total)
T1C64 003:533 JLINK_IsHalted()  returns FALSE (0000ms, 0356ms total)
T1C64 003:633 JLINK_IsHalted()  returns FALSE (0000ms, 0356ms total)
T1C64 003:733 JLINK_IsHalted()  returns FALSE (0000ms, 0356ms total)
T1C64 003:833 JLINK_IsHalted()  returns FALSE (0000ms, 0356ms total)
T1C64 003:933 JLINK_ReadMemU32(0xE0001004, 0x0001 Items, ...) -- CPU is running -- CPU_ReadMem(4 bytes @ 0xE0001004) -- Data:  71 36 95 02  returns 0x01 (0000ms, 0356ms total)
T1138 003:935 JLINK_ReadMem (0x2000007C, 0x0002 Bytes, ...) -- CPU is running -- CPU_ReadMem(2 bytes @ 0x2000007C) -- Data:  00 00  returns 0x00 (0001ms, 0357ms total)
T1138 003:940 JLINK_ReadMem (0x2000007C, 0x0002 Bytes, ...) -- CPU is running -- CPU_ReadMem(2 bytes @ 0x2000007C) -- Data:  00 00  returns 0x00 (0001ms, 0358ms total)
T1138 003:941 JLINK_ReadMem (0x2000007E, 0x0002 Bytes, ...) -- CPU is running -- CPU_ReadMem(2 bytes @ 0x2000007E) -- Data:  00 00  returns 0x00 (0001ms, 0359ms total)
T1138 003:942 JLINK_ReadMem (0x20000080, 0x0002 Bytes, ...) -- CPU is running -- CPU_ReadMem(2 bytes @ 0x20000080) -- Data:  00 00  returns 0x00 (0001ms, 0360ms total)
T1138 003:943 JLINK_ReadMem (0x20000082, 0x0002 Bytes, ...) -- CPU is running -- CPU_ReadMem(2 bytes @ 0x20000082) -- Data:  00 00  returns 0x00 (0000ms, 0360ms total)
T1138 003:944 JLINK_ReadMem (0x20000078, 0x0004 Bytes, ...) -- CPU is running -- CPU_ReadMem(4 bytes @ 0x20000078) -- Data:  00 00 00 00  returns 0x00 (0001ms, 0361ms total)
T1138 003:945 JLINK_ReadMem (0x20000060, 0x0004 Bytes, ...) -- CPU is running -- CPU_ReadMem(4 bytes @ 0x20000060) -- Data:  00 00 00 00  returns 0x00 (0001ms, 0362ms total)
T1138 003:946 JLINK_ReadMem (0x40020000, 0x0014 Bytes, ...) -- CPU is running -- CPU_ReadMem(20 bytes @ 0x40020000) -- Data:  07 00 00 00 00 00 00 00 21 25 00 00 01 00 00 00 ...  returns 0x00 (0001ms, 0363ms total)
T1138 003:947 JLINK_ReadMem (0x40020014, 0x0004 Bytes, ...) -- CPU is running -- CPU_ReadMem(4 bytes @ 0x40020014) -- Data:  C4 00 00 20  returns 0x00 (0001ms, 0364ms total)
T1138 003:948 JLINK_ReadMem (0x4002001C, 0x000C Bytes, ...) -- CPU is running -- CPU_ReadMem(12 bytes @ 0x4002001C) -- Data:  00 00 00 00 00 00 00 00 00 00 00 00  returns 0x00 (0000ms, 0364ms total)
T1138 003:948 JLINK_ReadMem (0x40020028, 0x0004 Bytes, ...) -- CPU is running -- CPU_ReadMem(4 bytes @ 0x40020028) -- Data:  00 00 00 00  returns 0x00 (0001ms, 0365ms total)
T1138 003:949 JLINK_ReadMem (0x40020030, 0x000C Bytes, ...) -- CPU is running -- CPU_ReadMem(12 bytes @ 0x40020030) -- Data:  00 00 00 00 00 00 00 00 00 00 00 00  returns 0x00 (0001ms, 0366ms total)
T1138 003:950 JLINK_ReadMem (0x4002003C, 0x0004 Bytes, ...) -- CPU is running -- CPU_ReadMem(4 bytes @ 0x4002003C) -- Data:  00 00 00 00  returns 0x00 (0001ms, 0367ms total)
T1138 003:951 JLINK_ReadMem (0x40020044, 0x000C Bytes, ...) -- CPU is running -- CPU_ReadMem(12 bytes @ 0x40020044) -- Data:  00 00 00 00 00 00 00 00 00 00 00 00  returns 0x00 (0001ms, 0368ms total)
T1138 003:952 JLINK_ReadMem (0x40020050, 0x0004 Bytes, ...) -- CPU is running -- CPU_ReadMem(4 bytes @ 0x40020050) -- Data:  00 00 00 00  returns 0x00 (0001ms, 0369ms total)
T1138 003:953 JLINK_ReadMem (0x40020058, 0x000C Bytes, ...) -- CPU is running -- CPU_ReadMem(12 bytes @ 0x40020058) -- Data:  00 00 00 00 00 00 00 00 00 00 00 00  returns 0x00 (0001ms, 0370ms total)
T1138 003:954 JLINK_ReadMem (0x40020064, 0x0004 Bytes, ...) -- CPU is running -- CPU_ReadMem(4 bytes @ 0x40020064) -- Data:  00 00 00 00  returns 0x00 (0000ms, 0370ms total)
T1138 003:954 JLINK_ReadMem (0x4002006C, 0x000C Bytes, ...) -- CPU is running -- CPU_ReadMem(12 bytes @ 0x4002006C) -- Data:  00 00 00 00 00 00 00 00 00 00 00 00  returns 0x00 (0001ms, 0371ms total)
T1138 003:955 JLINK_ReadMem (0x40020078, 0x0004 Bytes, ...) -- CPU is running -- CPU_ReadMem(4 bytes @ 0x40020078) -- Data:  00 00 00 00  returns 0x00 (0001ms, 0372ms total)
T1138 003:956 JLINK_ReadMem (0x40020080, 0x000C Bytes, ...) -- CPU is running -- CPU_ReadMem(12 bytes @ 0x40020080) -- Data:  00 00 00 00 00 00 00 00 00 00 00 00  returns 0x00 (0001ms, 0373ms total)
T1138 003:957 JLINK_ReadMem (0x4002008C, 0x0004 Bytes, ...) -- CPU is running -- CPU_ReadMem(4 bytes @ 0x4002008C) -- Data:  00 00 00 00  returns 0x00 (0000ms, 0373ms total)
T1138 003:957 JLINK_ReadMem (0x40020000, 0x0004 Bytes, ...) -- CPU is running -- CPU_ReadMem(4 bytes @ 0x40020000) -- Data:  07 00 00 00  returns 0x00 (0001ms, 0374ms total)
T1138 003:958 JLINK_ReadMem (0x40020000, 0x0004 Bytes, ...) -- CPU is running -- CPU_ReadMem(4 bytes @ 0x40020000) -- Data:  07 00 00 00  returns 0x00 (0001ms, 0375ms total)
T1138 003:959 JLINK_ReadMem (0x40020000, 0x0004 Bytes, ...) -- CPU is running -- CPU_ReadMem(4 bytes @ 0x40020000) -- Data:  07 00 00 00  returns 0x00 (0001ms, 0376ms total)
T1138 003:960 JLINK_ReadMem (0x40020000, 0x0004 Bytes, ...) -- CPU is running -- CPU_ReadMem(4 bytes @ 0x40020000) -- Data:  07 00 00 00  returns 0x00 (0001ms, 0377ms total)
T1138 003:961 JLINK_ReadMem (0x40020000, 0x0004 Bytes, ...) -- CPU is running -- CPU_ReadMem(4 bytes @ 0x40020000) -- Data:  07 00 00 00  returns 0x00 (0001ms, 0378ms total)
T1138 003:962 JLINK_ReadMem (0x40020000, 0x0004 Bytes, ...) -- CPU is running -- CPU_ReadMem(4 bytes @ 0x40020000) -- Data:  07 00 00 00  returns 0x00 (0001ms, 0379ms total)
T1138 003:963 JLINK_ReadMem (0x40020000, 0x0004 Bytes, ...) -- CPU is running -- CPU_ReadMem(4 bytes @ 0x40020000) -- Data:  07 00 00 00  returns 0x00 (0001ms, 0380ms total)
T1138 003:964 JLINK_ReadMem (0x40020000, 0x0004 Bytes, ...) -- CPU is running -- CPU_ReadMem(4 bytes @ 0x40020000) -- Data:  07 00 00 00  returns 0x00 (0001ms, 0381ms total)
T1138 003:965 JLINK_ReadMem (0x40020000, 0x0004 Bytes, ...) -- CPU is running -- CPU_ReadMem(4 bytes @ 0x40020000) -- Data:  07 00 00 00  returns 0x00 (0000ms, 0381ms total)
T1138 003:965 JLINK_ReadMem (0x40020000, 0x0004 Bytes, ...) -- CPU is running -- CPU_ReadMem(4 bytes @ 0x40020000) -- Data:  07 00 00 00  returns 0x00 (0001ms, 0382ms total)
T1138 003:966 JLINK_ReadMem (0x40020000, 0x0004 Bytes, ...) -- CPU is running -- CPU_ReadMem(4 bytes @ 0x40020000) -- Data:  07 00 00 00  returns 0x00 (0001ms, 0383ms total)
T1138 003:967 JLINK_ReadMem (0x40020000, 0x0004 Bytes, ...) -- CPU is running -- CPU_ReadMem(4 bytes @ 0x40020000) -- Data:  07 00 00 00  returns 0x00 (0001ms, 0384ms total)
T1138 003:968 JLINK_ReadMem (0x40020000, 0x0004 Bytes, ...) -- CPU is running -- CPU_ReadMem(4 bytes @ 0x40020000) -- Data:  07 00 00 00  returns 0x00 (0001ms, 0385ms total)
T1138 003:969 JLINK_ReadMem (0x40020000, 0x0004 Bytes, ...) -- CPU is running -- CPU_ReadMem(4 bytes @ 0x40020000) -- Data:  07 00 00 00  returns 0x00 (0000ms, 0385ms total)
T1138 003:970 JLINK_ReadMem (0x40020000, 0x0004 Bytes, ...) -- CPU is running -- CPU_ReadMem(4 bytes @ 0x40020000) -- Data:  07 00 00 00  returns 0x00 (0000ms, 0385ms total)
T1138 003:970 JLINK_ReadMem (0x40020000, 0x0004 Bytes, ...) -- CPU is running -- CPU_ReadMem(4 bytes @ 0x40020000) -- Data:  07 00 00 00  returns 0x00 (0001ms, 0386ms total)
T1138 003:971 JLINK_ReadMem (0x40020000, 0x0004 Bytes, ...) -- CPU is running -- CPU_ReadMem(4 bytes @ 0x40020000) -- Data:  07 00 00 00  returns 0x00 (0001ms, 0387ms total)
T1138 003:972 JLINK_ReadMem (0x40020000, 0x0004 Bytes, ...) -- CPU is running -- CPU_ReadMem(4 bytes @ 0x40020000) -- Data:  07 00 00 00  returns 0x00 (0001ms, 0388ms total)
T1138 003:973 JLINK_ReadMem (0x40020000, 0x0004 Bytes, ...) -- CPU is running -- CPU_ReadMem(4 bytes @ 0x40020000) -- Data:  07 00 00 00  returns 0x00 (0000ms, 0388ms total)
T1138 003:973 JLINK_ReadMem (0x40020000, 0x0004 Bytes, ...) -- CPU is running -- CPU_ReadMem(4 bytes @ 0x40020000) -- Data:  07 00 00 00  returns 0x00 (0001ms, 0389ms total)
T1138 003:974 JLINK_ReadMem (0x40020000, 0x0004 Bytes, ...) -- CPU is running -- CPU_ReadMem(4 bytes @ 0x40020000) -- Data:  07 00 00 00  returns 0x00 (0001ms, 0390ms total)
T1138 003:975 JLINK_ReadMem (0x40020000, 0x0004 Bytes, ...) -- CPU is running -- CPU_ReadMem(4 bytes @ 0x40020000) -- Data:  07 00 00 00  returns 0x00 (0001ms, 0391ms total)
T1138 003:976 JLINK_ReadMem (0x40020000, 0x0004 Bytes, ...) -- CPU is running -- CPU_ReadMem(4 bytes @ 0x40020000) -- Data:  07 00 00 00  returns 0x00 (0001ms, 0392ms total)
T1138 003:977 JLINK_ReadMem (0x40020000, 0x0004 Bytes, ...) -- CPU is running -- CPU_ReadMem(4 bytes @ 0x40020000) -- Data:  07 00 00 00  returns 0x00 (0000ms, 0392ms total)
T1138 003:977 JLINK_ReadMem (0x40020000, 0x0004 Bytes, ...) -- CPU is running -- CPU_ReadMem(4 bytes @ 0x40020000) -- Data:  07 00 00 00  returns 0x00 (0001ms, 0393ms total)
T1138 003:978 JLINK_ReadMem (0x40020000, 0x0004 Bytes, ...) -- CPU is running -- CPU_ReadMem(4 bytes @ 0x40020000) -- Data:  07 00 00 00  returns 0x00 (0001ms, 0394ms total)
T1138 003:979 JLINK_ReadMem (0x40020000, 0x0004 Bytes, ...) -- CPU is running -- CPU_ReadMem(4 bytes @ 0x40020000) -- Data:  07 00 00 00  returns 0x00 (0001ms, 0395ms total)
T1138 003:980 JLINK_ReadMem (0x40020000, 0x0004 Bytes, ...) -- CPU is running -- CPU_ReadMem(4 bytes @ 0x40020000) -- Data:  07 00 00 00  returns 0x00 (0001ms, 0396ms total)
T1138 003:981 JLINK_ReadMem (0x40020000, 0x0004 Bytes, ...) -- CPU is running -- CPU_ReadMem(4 bytes @ 0x40020000) -- Data:  07 00 00 00  returns 0x00 (0000ms, 0396ms total)
T1138 003:985 JLINK_ReadMem (0x40020008, 0x0004 Bytes, ...) -- CPU is running -- CPU_ReadMem(4 bytes @ 0x40020008) -- Data:  21 25 00 00  returns 0x00 (0001ms, 0397ms total)
T1138 003:986 JLINK_ReadMem (0x40020008, 0x0004 Bytes, ...) -- CPU is running -- CPU_ReadMem(4 bytes @ 0x40020008) -- Data:  21 25 00 00  returns 0x00 (0001ms, 0398ms total)
T1138 003:987 JLINK_ReadMem (0x40020008, 0x0004 Bytes, ...) -- CPU is running -- CPU_ReadMem(4 bytes @ 0x40020008) -- Data:  21 25 00 00  returns 0x00 (0001ms, 0399ms total)
T1138 003:988 JLINK_ReadMem (0x40020008, 0x0004 Bytes, ...) -- CPU is running -- CPU_ReadMem(4 bytes @ 0x40020008) -- Data:  21 25 00 00  returns 0x00 (0000ms, 0399ms total)
T1138 003:988 JLINK_ReadMem (0x40020008, 0x0004 Bytes, ...) -- CPU is running -- CPU_ReadMem(4 bytes @ 0x40020008) -- Data:  21 25 00 00  returns 0x00 (0001ms, 0400ms total)
T1138 003:989 JLINK_ReadMem (0x40020008, 0x0004 Bytes, ...) -- CPU is running -- CPU_ReadMem(4 bytes @ 0x40020008) -- Data:  21 25 00 00  returns 0x00 (0001ms, 0401ms total)
T1138 003:990 JLINK_ReadMem (0x40020008, 0x0004 Bytes, ...) -- CPU is running -- CPU_ReadMem(4 bytes @ 0x40020008) -- Data:  21 25 00 00  returns 0x00 (0001ms, 0402ms total)
T1138 003:991 JLINK_ReadMem (0x40020008, 0x0004 Bytes, ...) -- CPU is running -- CPU_ReadMem(4 bytes @ 0x40020008) -- Data:  21 25 00 00  returns 0x00 (0001ms, 0403ms total)
T1138 003:992 JLINK_ReadMem (0x40020008, 0x0004 Bytes, ...) -- CPU is running -- CPU_ReadMem(4 bytes @ 0x40020008) -- Data:  21 25 00 00  returns 0x00 (0001ms, 0404ms total)
T1138 003:993 JLINK_ReadMem (0x40020008, 0x0004 Bytes, ...) -- CPU is running -- CPU_ReadMem(4 bytes @ 0x40020008) -- Data:  21 25 00 00  returns 0x00 (0000ms, 0404ms total)
T1138 003:993 JLINK_ReadMem (0x40020008, 0x0004 Bytes, ...) -- CPU is running -- CPU_ReadMem(4 bytes @ 0x40020008) -- Data:  21 25 00 00  returns 0x00 (0001ms, 0405ms total)
T1138 003:994 JLINK_ReadMem (0x40020008, 0x0004 Bytes, ...) -- CPU is running -- CPU_ReadMem(4 bytes @ 0x40020008) -- Data:  21 25 00 00  returns 0x00 (0001ms, 0406ms total)
T1138 003:995 JLINK_ReadMem (0x40020008, 0x0004 Bytes, ...) -- CPU is running -- CPU_ReadMem(4 bytes @ 0x40020008) -- Data:  21 25 00 00  returns 0x00 (0001ms, 0407ms total)
T1138 004:000 JLINK_ReadMem (0x4002000C, 0x0004 Bytes, ...) -- CPU is running -- CPU_ReadMem(4 bytes @ 0x4002000C) -- Data:  01 00 00 00  returns 0x00 (0001ms, 0408ms total)
T1138 004:001 JLINK_ReadMem (0x4002000C, 0x0004 Bytes, ...) -- CPU is running -- CPU_ReadMem(4 bytes @ 0x4002000C) -- Data:  01 00 00 00  returns 0x00 (0001ms, 0409ms total)
T1138 004:005 JLINK_ReadMem (0x40020010, 0x0004 Bytes, ...) -- CPU is running -- CPU_ReadMem(4 bytes @ 0x40020010) -- Data:  4C 24 01 40  returns 0x00 (0001ms, 0410ms total)
T1138 004:006 JLINK_ReadMem (0x40020010, 0x0004 Bytes, ...) -- CPU is running -- CPU_ReadMem(4 bytes @ 0x40020010) -- Data:  4C 24 01 40  returns 0x00 (0000ms, 0410ms total)
T1138 004:009 JLINK_ReadMem (0x40020014, 0x0004 Bytes, ...) -- CPU is running -- CPU_ReadMem(4 bytes @ 0x40020014) -- Data:  C4 00 00 20  returns 0x00 (0001ms, 0411ms total)
T1138 004:010 JLINK_ReadMem (0x40020014, 0x0004 Bytes, ...) -- CPU is running -- CPU_ReadMem(4 bytes @ 0x40020014) -- Data:  C4 00 00 20  returns 0x00 (0001ms, 0412ms total)
T1138 004:014 JLINK_ReadMem (0x40013800, 0x0018 Bytes, ...) -- CPU is running -- CPU_ReadMem(24 bytes @ 0x40013800) -- Data:  F8 00 00 00 55 00 00 00 71 02 00 00 0C 20 00 00 ...  returns 0x00 (0001ms, 0413ms total)
T1138 004:015 JLINK_ReadMem (0x40013818, 0x0004 Bytes, ...) -- CPU is running -- CPU_ReadMem(4 bytes @ 0x40013818) -- Data:  00 00 00 00  returns 0x00 (0000ms, 0413ms total)
T1138 004:015 JLINK_ReadMem (0x40013800, 0x0004 Bytes, ...) -- CPU is running -- CPU_ReadMem(4 bytes @ 0x40013800) -- Data:  C0 00 00 00  returns 0x00 (0001ms, 0414ms total)
T1138 004:016 JLINK_ReadMem (0x40013800, 0x0004 Bytes, ...) -- CPU is running -- CPU_ReadMem(4 bytes @ 0x40013800) -- Data:  C0 00 00 00  returns 0x00 (0001ms, 0415ms total)
T1138 004:017 JLINK_ReadMem (0x40013800, 0x0004 Bytes, ...) -- CPU is running -- CPU_ReadMem(4 bytes @ 0x40013800) -- Data:  C0 00 00 00  returns 0x00 (0001ms, 0416ms total)
T1138 004:018 JLINK_ReadMem (0x40013800, 0x0004 Bytes, ...) -- CPU is running -- CPU_ReadMem(4 bytes @ 0x40013800) -- Data:  C0 00 00 00  returns 0x00 (0001ms, 0417ms total)
T1138 004:019 JLINK_ReadMem (0x40013800, 0x0004 Bytes, ...) -- CPU is running -- CPU_ReadMem(4 bytes @ 0x40013800) -- Data:  C0 00 00 00  returns 0x00 (0001ms, 0418ms total)
T1138 004:020 JLINK_ReadMem (0x40013800, 0x0004 Bytes, ...) -- CPU is running -- CPU_ReadMem(4 bytes @ 0x40013800) -- Data:  C0 00 00 00  returns 0x00 (0001ms, 0419ms total)
T1138 004:021 JLINK_ReadMem (0x40013800, 0x0004 Bytes, ...) -- CPU is running -- CPU_ReadMem(4 bytes @ 0x40013800) -- Data:  C0 00 00 00  returns 0x00 (0000ms, 0419ms total)
T1138 004:021 JLINK_ReadMem (0x40013800, 0x0004 Bytes, ...) -- CPU is running -- CPU_ReadMem(4 bytes @ 0x40013800) -- Data:  C0 00 00 00  returns 0x00 (0001ms, 0420ms total)
T1138 004:022 JLINK_ReadMem (0x40013800, 0x0004 Bytes, ...) -- CPU is running -- CPU_ReadMem(4 bytes @ 0x40013800) -- Data:  C0 00 00 00  returns 0x00 (0001ms, 0421ms total)
T1138 004:023 JLINK_ReadMem (0x40013800, 0x0004 Bytes, ...) -- CPU is running -- CPU_ReadMem(4 bytes @ 0x40013800) -- Data:  C0 00 00 00  returns 0x00 (0001ms, 0422ms total)
T1138 004:024 JLINK_ReadMem (0x40013800, 0x0004 Bytes, ...) -- CPU is running -- CPU_ReadMem(4 bytes @ 0x40013800) -- Data:  C0 00 00 00  returns 0x00 (0001ms, 0423ms total)
T1138 004:025 JLINK_ReadMem (0x40013804, 0x0004 Bytes, ...) -- CPU is running -- CPU_ReadMem(4 bytes @ 0x40013804) -- Data:  55 00 00 00  returns 0x00 (0000ms, 0423ms total)
T1138 004:025 JLINK_ReadMem (0x40013804, 0x0004 Bytes, ...) -- CPU is running -- CPU_ReadMem(4 bytes @ 0x40013804) -- Data:  55 00 00 00  returns 0x00 (0001ms, 0424ms total)
T1138 004:026 JLINK_ReadMem (0x40013808, 0x0004 Bytes, ...) -- CPU is running -- CPU_ReadMem(4 bytes @ 0x40013808) -- Data:  71 02 00 00  returns 0x00 (0001ms, 0425ms total)
T1138 004:027 JLINK_ReadMem (0x40013808, 0x0004 Bytes, ...) -- CPU is running -- CPU_ReadMem(4 bytes @ 0x40013808) -- Data:  71 02 00 00  returns 0x00 (0001ms, 0426ms total)
T1138 004:028 JLINK_ReadMem (0x40013808, 0x0004 Bytes, ...) -- CPU is running -- CPU_ReadMem(4 bytes @ 0x40013808) -- Data:  71 02 00 00  returns 0x00 (0001ms, 0427ms total)
